
T3F38 000:331 SEGGER J-Link V4.96d Log File (0001ms, 0269ms total)
T3F38 000:331 DLL Compiled: Jan 29 2015 11:45:37 (0002ms, 0270ms total)
T3F38 000:331 Logging started @ 2019-01-24 21:11 (0002ms, 0270ms total)
T3F38 000:333 JLINK_SetWarnOutHandler(...) (0000ms, 0270ms total)
T3F38 000:333 JLINK_OpenEx(...)
Firmware: J-Link ARM-OB STM32 compiled Aug 22 2012 19:52:04
Hardware: V7.00
S/N: 20090928
Feature(s): RDI,FlashDL,FlashBP,JFlash,GDB  returns O.K. (0268ms, 0538ms total)
T3F38 000:602 JLINK_SetErrorOutHandler(...) (0000ms, 0538ms total)
T3F38 000:602 JLINK_ExecCommand("ProjectFile = "C:\Users\22187\Desktop\RMÍÅ¶Ó\´ó·û\3508\3508\User\JLinkSettings.ini"", ...)Device "CORTEX-M4" selected.  returns 0x00 (0004ms, 0542ms total)
T3F38 000:606 JLINK_ExecCommand("Device = STM32F405RG", ...)Device "CORTEX-M4" selected.  returns 0x00 (0002ms, 0544ms total)
T3F38 000:608 JLINK_ExecCommand("DisableConnectionTimeout", ...)  returns 0x01 (0000ms, 0544ms total)
T3F38 000:608 JLINK_GetHardwareVersion()  returns 0x11170 (0001ms, 0545ms total)
T3F38 000:609 JLINK_GetDLLVersion()  returns 49604 (0000ms, 0545ms total)
T3F38 000:609 JLINK_GetFirmwareString(...) (0000ms, 0545ms total)
T3F38 000:614 JLINK_GetDLLVersion()  returns 49604 (0000ms, 0545ms total)
T3F38 000:614 JLINK_GetCompileDateTime() (0000ms, 0545ms total)
T3F38 000:615 JLINK_GetFirmwareString(...) (0000ms, 0545ms total)
T3F38 000:616 JLINK_GetHardwareVersion()  returns 0x11170 (0001ms, 0546ms total)
T3F38 000:620 JLINK_TIF_Select(JLINKARM_TIF_SWD)  returns 0x00 (0001ms, 0547ms total)
T3F38 000:621 JLINK_SetSpeed(5000) (0001ms, 0548ms total)
T3F38 000:622 JLINK_GetId() >0x108 TIF>Found SWD-DP with ID 0x2BA01477 >0x0D TIF> >0x21 TIF> >0x0D TIF> >0x28 TIF> >0x0D TIF> >0x28 TIF> >0x0D TIF> >0x21 TIF> >0x0D TIF> >0x28 TIF> >0x0D TIF> >0x21 TIF> >0x0D TIF> >0x21 TIF> >0x0D TIF> >0x21 TIF> >0x0D TIF> >0x21 TIF> >0x0D TIF> >0x28 TIF> >0x0D TIF> >0x28 TIF> >0x0D TIF> >0x21 TIF> >0x0D TIF> >0x28 TIF> >0x0D TIF> >0x28 TIF> >0x0D TIF> >0x28 TIF> >0x0D TIF> >0x21 TIF> >0x0D TIF> >0x21 TIF> >0x0D TIF> >0x28 TIF> >0x0D TIF> >0x21 TIF> >0x0D TIF>
 >0x21 TIF>Found Cortex-M4 r0p1, Little endian. -- CPU_WriteMem(4 bytes @ 0xE0002000) -- CPU_ReadMem(4 bytes @ 0xE000EDF0) -- CPU_ReadMem(4 bytes @ 0xE0002000)FPUnit: 6 code (BP) slots and 2 literal slots -- CPU_ReadMem(4 bytes @ 0xE000EDFC) -- CPU_ReadMem(4 bytes @ 0xE0001000) -- CPU_WriteMem(4 bytes @ 0xE0001000) -- CPU_ReadMem(4 bytes @ 0xE000ED88) -- CPU_WriteMem(4 bytes @ 0xE000ED88) -- CPU_ReadMem(4 bytes @ 0xE000ED88) -- CPU_WriteMem(4 bytes @ 0xE000ED88) -- CPU_ReadMem(4 bytes @ 0xE00FF010)
TPIU fitted. -- CPU_ReadMem(4 bytes @ 0xE00FF014)ETM fitted. -- CPU_ReadMem(4 bytes @ 0xE00FF018) >0x0D TIF> >0x21 TIF>  returns 0x2BA01477 (0034ms, 0582ms total)
T3F38 000:657 JLINK_GetDLLVersion()  returns 49604 (0000ms, 0583ms total)
T3F38 000:657 JLINK_CORE_GetFound()  returns 0xE0000FF (0000ms, 0583ms total)
T3F38 000:657 JLINK_GetDebugInfo(0x100) -- Value=0xE00FF003  returns 0x00 (0000ms, 0583ms total)
T3F38 000:659 JLINK_ReadMem (0xE00FF000, 0x0020 Bytes, ...) -- CPU is running -- CPU_ReadMem(32 bytes @ 0xE00FF000) - Data: 03 F0 F0 FF 03 20 F0 FF 03 30 F0 FF 03 10 F0 FF ...  returns 0x00 (0001ms, 0584ms total)
T3F38 000:660 JLINK_ReadMem (0xE000EFF0, 0x0010 Bytes, ...) -- CPU is running -- CPU_ReadMem(16 bytes @ 0xE000EFF0) - Data: 0D 00 00 00 E0 00 00 00 05 00 00 00 B1 00 00 00  returns 0x00 (0001ms, 0585ms total)
T3F38 000:661 JLINK_ReadMem (0xE000EFD0, 0x0020 Bytes, ...) -- CPU is running -- CPU_ReadMem(32 bytes @ 0xE000EFD0) - Data: 04 00 00 00 00 00 00 00 00 00 00 00 00 00 00 00 ...  returns 0x00 (0001ms, 0586ms total)
T3F38 000:663 JLINK_ReadMem (0xE0001FF0, 0x0010 Bytes, ...) -- CPU is running -- CPU_ReadMem(16 bytes @ 0xE0001FF0) - Data: 0D 00 00 00 E0 00 00 00 05 00 00 00 B1 00 00 00  returns 0x00 (0000ms, 0586ms total)
T3F38 000:663 JLINK_ReadMem (0xE0001FD0, 0x0020 Bytes, ...) -- CPU is running -- CPU_ReadMem(32 bytes @ 0xE0001FD0) - Data: 04 00 00 00 00 00 00 00 00 00 00 00 00 00 00 00 ...  returns 0x00 (0002ms, 0588ms total)
T3F38 000:665 JLINK_ReadMem (0xE0002FF0, 0x0010 Bytes, ...) -- CPU is running -- CPU_ReadMem(16 bytes @ 0xE0002FF0) - Data: 0D 00 00 00 E0 00 00 00 05 00 00 00 B1 00 00 00  returns 0x00 (0001ms, 0589ms total)
T3F38 000:666 JLINK_ReadMem (0xE0002FD0, 0x0020 Bytes, ...) -- CPU is running -- CPU_ReadMem(32 bytes @ 0xE0002FD0) - Data: 04 00 00 00 00 00 00 00 00 00 00 00 00 00 00 00 ...  returns 0x00 (0001ms, 0590ms total)
T3F38 000:667 JLINK_ReadMem (0xE0000FF0, 0x0010 Bytes, ...) -- CPU is running -- CPU_ReadMem(16 bytes @ 0xE0000FF0) - Data: 0D 00 00 00 E0 00 00 00 05 00 00 00 B1 00 00 00  returns 0x00 (0001ms, 0591ms total)
T3F38 000:668 JLINK_ReadMem (0xE0000FD0, 0x0020 Bytes, ...) -- CPU is running -- CPU_ReadMem(32 bytes @ 0xE0000FD0) - Data: 04 00 00 00 00 00 00 00 00 00 00 00 00 00 00 00 ...  returns 0x00 (0001ms, 0592ms total)
T3F38 000:669 JLINK_ReadMem (0xE0040FF0, 0x0010 Bytes, ...) -- CPU is running -- CPU_ReadMem(16 bytes @ 0xE0040FF0) - Data: 0D 00 00 00 90 00 00 00 05 00 00 00 B1 00 00 00  returns 0x00 (0001ms, 0593ms total)
T3F38 000:670 JLINK_ReadMem (0xE0040FD0, 0x0020 Bytes, ...) -- CPU is running -- CPU_ReadMem(32 bytes @ 0xE0040FD0) - Data: 04 00 00 00 00 00 00 00 00 00 00 00 00 00 00 00 ...  returns 0x00 (0001ms, 0594ms total)
T3F38 000:671 JLINK_ReadMem (0xE0041FF0, 0x0010 Bytes, ...) -- CPU is running -- CPU_ReadMem(16 bytes @ 0xE0041FF0) - Data: 0D 00 00 00 90 00 00 00 05 00 00 00 B1 00 00 00  returns 0x00 (0000ms, 0594ms total)
T3F38 000:672 JLINK_ReadMem (0xE0041FD0, 0x0020 Bytes, ...) -- CPU is running -- CPU_ReadMem(32 bytes @ 0xE0041FD0) - Data: 04 00 00 00 00 00 00 00 00 00 00 00 00 00 00 00 ...  returns 0x00 (0010ms, 0605ms total)
T3F38 000:682 JLINK_ReadMemU32(0xE000EF40, 0x0001 Items, ...) -- CPU is running -- CPU_ReadMem(4 bytes @ 0xE000EF40) - Data: 21 00 11 10  returns 0x01 (0002ms, 0607ms total)
T3F38 000:684 JLINK_ReadMemU32(0xE000EF44, 0x0001 Items, ...) -- CPU is running -- CPU_ReadMem(4 bytes @ 0xE000EF44) - Data: 11 00 00 11  returns 0x01 (0001ms, 0608ms total)
T3F38 000:685 JLINK_ReadMemU32(0xE000ED00, 0x0001 Items, ...) -- CPU is running -- CPU_ReadMem(4 bytes @ 0xE000ED00) - Data: 41 C2 0F 41  returns 0x01 (0002ms, 0610ms total)
T3F38 000:687 JLINK_SetResetType(JLINKARM_RESET_TYPE_NORMAL)  returns JLINKARM_RESET_TYPE_NORMAL (0000ms, 0610ms total)
T3F38 000:687 JLINK_Reset() -- CPU is running -- CPU_WriteMem(4 bytes @ 0xE000EDF0) -- CPU is running -- CPU_WriteMem(4 bytes @ 0xE000EDFC) >0x35 TIF> -- CPU is running -- CPU_WriteMem(4 bytes @ 0xE000ED0C) -- CPU is running -- CPU_ReadMem(4 bytes @ 0xE000EDF0) -- CPU is running -- CPU_ReadMem(4 bytes @ 0xE000EDF0) -- CPU is running -- CPU_WriteMem(4 bytes @ 0xE000EDF0) -- CPU is running -- CPU_WriteMem(4 bytes @ 0xE000EDFC) -- CPU is running -- CPU_ReadMem(4 bytes @ 0xE000EDF0)
 -- CPU_WriteMem(4 bytes @ 0xE0002000) -- CPU_ReadMem(4 bytes @ 0xE000EDFC) -- CPU_ReadMem(4 bytes @ 0xE0001000) (0022ms, 0632ms total)
T3F38 000:709 JLINK_ReadReg(R15 (PC))  returns 0x0800019C (0000ms, 0632ms total)
T3F38 000:709 JLINK_ReadReg(XPSR)  returns 0x01000000 (0000ms, 0632ms total)
T3F38 000:709 JLINK_Halt()  returns 0x00 (0001ms, 0633ms total)
T3F38 000:710 JLINK_IsHalted()  returns TRUE (0000ms, 0633ms total)
T3F38 000:710 JLINK_ReadMemU32(0xE000EDF0, 0x0001 Items, ...) -- CPU_ReadMem(4 bytes @ 0xE000EDF0) - Data: 03 00 03 00  returns 0x01 (0000ms, 0633ms total)
T3F38 000:710 JLINK_WriteU32(0xE000EDF0, 0xA05F0003) -- CPU_WriteMem(4 bytes @ 0xE000EDF0)  returns 0x00 (0001ms, 0634ms total)
T3F38 000:711 JLINK_WriteU32(0xE000EDFC, 0x01000000) -- CPU_WriteMem(4 bytes @ 0xE000EDFC)  returns 0x00 (0000ms, 0634ms total)
T3F38 000:713 JLINK_GetHWStatus(...)  returns 0x00 (0000ms, 0634ms total)
T3F38 000:713 JLINK_GetNumBPUnits(Type = 0xFFFFFF00)  returns 0x06 (0001ms, 0635ms total)
T3F38 000:714 JLINK_GetNumBPUnits(Type = 0xF0)  returns 0x2000 (0000ms, 0635ms total)
T3F38 000:714 JLINK_GetNumWPUnits()  returns 0x04 (0000ms, 0635ms total)
T3F38 000:714 JLINK_GetSpeed()  returns 0xFA0 (0000ms, 0635ms total)
T3F38 000:715 JLINK_ReadMemU32(0xE000E004, 0x0001 Items, ...) -- CPU_ReadMem(4 bytes @ 0xE000E004) - Data: 02 00 00 00  returns 0x01 (0000ms, 0635ms total)
T3F38 000:716 JLINK_ReadMemU32(0xE000E004, 0x0001 Items, ...) -- CPU_ReadMem(4 bytes @ 0xE000E004) - Data: 02 00 00 00  returns 0x01 (0000ms, 0636ms total)
T3F38 000:716 JLINK_WriteMem(0xE0001000, 0x001C Bytes, ...) - Data: 01 00 00 00 00 00 00 00 00 00 00 00 00 00 00 00 ... -- CPU_WriteMem(28 bytes @ 0xE0001000)  returns 0x1C (0002ms, 0638ms total)
T3F38 000:718 JLINK_ReadMem (0xE0001000, 0x001C Bytes, ...) -- CPU_ReadMem(28 bytes @ 0xE0001000) - Data: 01 00 00 40 00 00 00 00 00 00 00 00 00 00 00 00 ...  returns 0x00 (0001ms, 0639ms total)
T3F38 000:719 JLINK_ReadReg(R15 (PC))  returns 0x0800019C (0000ms, 0639ms total)
T3F38 000:719 JLINK_ReadReg(XPSR)  returns 0x01000000 (0000ms, 0639ms total)
T3F38 000:815 JLINK_SetResetType(JLINKARM_RESET_TYPE_NORMAL)  returns JLINKARM_RESET_TYPE_NORMAL (0000ms, 0639ms total)
T3F38 000:815 JLINK_Reset() -- CPU_WriteMem(4 bytes @ 0xE000EDF0) -- CPU_WriteMem(4 bytes @ 0xE000EDFC) >0x35 TIF> -- CPU_WriteMem(4 bytes @ 0xE000ED0C) -- CPU_ReadMem(4 bytes @ 0xE000EDF0) -- CPU_ReadMem(4 bytes @ 0xE000EDF0) -- CPU_WriteMem(4 bytes @ 0xE000EDF0) -- CPU_WriteMem(4 bytes @ 0xE000EDFC) -- CPU is running -- CPU_ReadMem(4 bytes @ 0xE000EDF0) -- CPU_WriteMem(4 bytes @ 0xE0002000) -- CPU_ReadMem(4 bytes @ 0xE000EDFC) -- CPU_ReadMem(4 bytes @ 0xE0001000) (0018ms, 0657ms total)
T3F38 000:833 JLINK_ReadReg(R15 (PC))  returns 0x0800019C (0000ms, 0657ms total)
T3F38 000:833 JLINK_ReadReg(XPSR)  returns 0x01000000 (0000ms, 0657ms total)
T3F38 000:833 JLINK_ReadMemU32(0xE0001004, 0x0001 Items, ...) -- CPU_ReadMem(4 bytes @ 0xE0001004) - Data: B7 17 00 00  returns 0x01 (0001ms, 0658ms total)
T3F38 001:035 JLINK_ReadMem (0x0800019C, 0x003C Bytes, ...) -- CPU_ReadMem(60 bytes @ 0x0800019C) - Data: 06 48 80 47 06 48 00 47 FE E7 FE E7 FE E7 FE E7 ...  returns 0x00 (0001ms, 0659ms total)
T3F38 001:566 JLINK_ReadMem (0x00000000, 0x0036 Bytes, ...) -- CPU_ReadMem(54 bytes @ 0x00000000) - Data: E8 04 00 20 9D 01 00 08 F3 0B 00 08 EB 0B 00 08 ...  returns 0x00 (0001ms, 0660ms total)
T3F38 002:069 JLINK_ReadMem (0x20000000, 0x0004 Bytes, ...) -- CPU_ReadMem(4 bytes @ 0x20000000) - Data: 00 00 00 00  returns 0x00 (0001ms, 0661ms total)
T3F38 002:071 JLINK_ReadMem (0x20000050, 0x0004 Bytes, ...) -- CPU_ReadMem(4 bytes @ 0x20000050) - Data: 00 00 00 00  returns 0x00 (0001ms, 0662ms total)
T3F38 002:073 JLINK_ReadMem (0x20000004, 0x0004 Bytes, ...) -- CPU_ReadMem(4 bytes @ 0x20000004) - Data: AB 26 00 00  returns 0x00 (0001ms, 0663ms total)
T3F38 002:075 JLINK_ReadMem (0x20000044, 0x0004 Bytes, ...) -- CPU_ReadMem(4 bytes @ 0x20000044) - Data: F4 01 00 00  returns 0x00 (0000ms, 0663ms total)
T3F38 002:078 JLINK_ReadMem (0x20000010, 0x0004 Bytes, ...) -- CPU_ReadMem(4 bytes @ 0x20000010) - Data: 00 00 00 00  returns 0x00 (0000ms, 0663ms total)
T3F38 002:080 JLINK_ReadMem (0x20000014, 0x0004 Bytes, ...) -- CPU_ReadMem(4 bytes @ 0x20000014) - Data: 00 00 00 00  returns 0x00 (0000ms, 0663ms total)
T3F38 002:083 JLINK_ReadMem (0x2000001C, 0x0004 Bytes, ...) -- CPU_ReadMem(4 bytes @ 0x2000001C) - Data: 00 00 48 43  returns 0x00 (0001ms, 0664ms total)
T3F38 002:085 JLINK_ReadMem (0x2000005C, 0x0002 Bytes, ...) -- CPU_ReadMem(2 bytes @ 0x2000005C) - Data: 00 00  returns 0x00 (0000ms, 0664ms total)
T2008 002:101 JLINK_SetBPEx(Addr = 0x08001364, Type = 0xFFFFFFF2)  returns 0x00000001 (0000ms, 0664ms total)
T2008 002:101 JLINK_Go() -- CPU_WriteMem(4 bytes @ 0xE0002000) -- CPU_WriteMem(4 bytes @ 0xE0002008) -- CPU_WriteMem(4 bytes @ 0xE000200C) -- CPU_WriteMem(4 bytes @ 0xE0002010) -- CPU_WriteMem(4 bytes @ 0xE0002014) -- CPU_WriteMem(4 bytes @ 0xE0002018) -- CPU_WriteMem(4 bytes @ 0xE000201C) -- CPU_WriteMem(4 bytes @ 0xE0001004) (0004ms, 0668ms total)
T2008 002:206 JLINK_IsHalted()  returns TRUE (0003ms, 0671ms total)
T2008 002:209 JLINK_Halt()  returns 0x00 (0000ms, 0668ms total)
T2008 002:209 JLINK_IsHalted()  returns TRUE (0000ms, 0668ms total)
T2008 002:209 JLINK_IsHalted()  returns TRUE (0001ms, 0669ms total)
T2008 002:210 JLINK_IsHalted()  returns TRUE (0000ms, 0668ms total)
T2008 002:210 JLINK_ReadReg(R15 (PC))  returns 0x08001364 (0000ms, 0668ms total)
T2008 002:210 JLINK_ReadReg(XPSR)  returns 0x61000000 (0000ms, 0668ms total)
T2008 002:210 JLINK_ClrBPEx(BPHandle = 0x00000001)  returns 0x00 (0000ms, 0668ms total)
T2008 002:210 JLINK_ReadMemU32(0xE000ED30, 0x0001 Items, ...) -- CPU_ReadMem(4 bytes @ 0xE000ED30) - Data: 03 00 00 00  returns 0x01 (0000ms, 0668ms total)
T2008 002:210 JLINK_ReadMemU32(0xE0001028, 0x0001 Items, ...) -- CPU_ReadMem(4 bytes @ 0xE0001028) - Data: 00 00 00 00  returns 0x01 (0001ms, 0669ms total)
T2008 002:211 JLINK_ReadMemU32(0xE0001038, 0x0001 Items, ...) -- CPU_ReadMem(4 bytes @ 0xE0001038) - Data: 00 02 00 00  returns 0x01 (0001ms, 0670ms total)
T2008 002:212 JLINK_ReadMemU32(0xE0001048, 0x0001 Items, ...) -- CPU_ReadMem(4 bytes @ 0xE0001048) - Data: 00 00 00 00  returns 0x01 (0000ms, 0670ms total)
T2008 002:212 JLINK_ReadMemU32(0xE0001058, 0x0001 Items, ...) -- CPU_ReadMem(4 bytes @ 0xE0001058) - Data: 00 00 00 00  returns 0x01 (0001ms, 0671ms total)
T2008 002:213 JLINK_ReadReg(R0)  returns 0x08001365 (0000ms, 0671ms total)
T2008 002:213 JLINK_ReadReg(R1)  returns 0x200004E8 (0000ms, 0671ms total)
T2008 002:213 JLINK_ReadReg(R2)  returns 0x00000000 (0000ms, 0671ms total)
T2008 002:213 JLINK_ReadReg(R3)  returns 0x08001329 (0000ms, 0671ms total)
T2008 002:213 JLINK_ReadReg(R4)  returns 0x080013B8 (0000ms, 0671ms total)
T2008 002:213 JLINK_ReadReg(R5)  returns 0x080013B8 (0000ms, 0671ms total)
T2008 002:213 JLINK_ReadReg(R6)  returns 0x00000000 (0000ms, 0671ms total)
T2008 002:213 JLINK_ReadReg(R7)  returns 0x00000000 (0000ms, 0671ms total)
T2008 002:213 JLINK_ReadReg(R8)  returns 0x00000000 (0000ms, 0671ms total)
T2008 002:213 JLINK_ReadReg(R9)  returns 0x00000000 (0001ms, 0672ms total)
T2008 002:214 JLINK_ReadReg(R10)  returns 0x00000000 (0000ms, 0672ms total)
T2008 002:214 JLINK_ReadReg(R11)  returns 0x00000000 (0000ms, 0672ms total)
T2008 002:214 JLINK_ReadReg(R12)  returns 0x00000000 (0000ms, 0672ms total)
T2008 002:214 JLINK_ReadReg(R13 (SP))  returns 0x200004E8 (0000ms, 0672ms total)
T2008 002:214 JLINK_ReadReg(R14)  returns 0x080001DD (0000ms, 0672ms total)
T2008 002:214 JLINK_ReadReg(R15 (PC))  returns 0x08001364 (0000ms, 0672ms total)
T2008 002:214 JLINK_ReadReg(XPSR)  returns 0x61000000 (0000ms, 0672ms total)
T2008 002:214 JLINK_ReadReg(MSP)  returns 0x200004E8 (0000ms, 0672ms total)
T2008 002:214 JLINK_ReadReg(PSP)  returns 0x00000000 (0000ms, 0672ms total)
T2008 002:214 JLINK_ReadReg(CFBP)  returns 0x00000000 (0000ms, 0672ms total)
T2008 002:214 JLINK_ReadReg(FPSCR)  returns 0x00000000 (0005ms, 0677ms total)
T2008 002:219 JLINK_ReadReg(FPS0)  returns 0x00000000 (0000ms, 0677ms total)
T2008 002:219 JLINK_ReadReg(FPS1)  returns 0x00000000 (0000ms, 0677ms total)
T2008 002:219 JLINK_ReadReg(FPS2)  returns 0x00000000 (0000ms, 0677ms total)
T2008 002:219 JLINK_ReadReg(FPS3)  returns 0x00000000 (0000ms, 0677ms total)
T2008 002:219 JLINK_ReadReg(FPS4)  returns 0x00000000 (0000ms, 0677ms total)
T2008 002:219 JLINK_ReadReg(FPS5)  returns 0x00000000 (0000ms, 0677ms total)
T2008 002:219 JLINK_ReadReg(FPS6)  returns 0x00000000 (0000ms, 0677ms total)
T2008 002:219 JLINK_ReadReg(FPS7)  returns 0x00000000 (0000ms, 0677ms total)
T2008 002:219 JLINK_ReadReg(FPS8)  returns 0x00000000 (0000ms, 0677ms total)
T2008 002:219 JLINK_ReadReg(FPS9)  returns 0x00000000 (0000ms, 0677ms total)
T2008 002:219 JLINK_ReadReg(FPS10)  returns 0x00000000 (0001ms, 0678ms total)
T2008 002:220 JLINK_ReadReg(FPS11)  returns 0x00000000 (0000ms, 0678ms total)
T2008 002:220 JLINK_ReadReg(FPS12)  returns 0x00000000 (0000ms, 0678ms total)
T2008 002:220 JLINK_ReadReg(FPS13)  returns 0x00000000 (0000ms, 0678ms total)
T2008 002:220 JLINK_ReadReg(FPS14)  returns 0x00000000 (0000ms, 0678ms total)
T2008 002:220 JLINK_ReadReg(FPS15)  returns 0x00000000 (0000ms, 0678ms total)
T2008 002:220 JLINK_ReadReg(FPS16)  returns 0x00000000 (0000ms, 0678ms total)
T2008 002:220 JLINK_ReadReg(FPS17)  returns 0x00000000 (0000ms, 0678ms total)
T2008 002:220 JLINK_ReadReg(FPS18)  returns 0x00000000 (0000ms, 0678ms total)
T2008 002:220 JLINK_ReadReg(FPS19)  returns 0x00000000 (0000ms, 0678ms total)
T2008 002:220 JLINK_ReadReg(FPS20)  returns 0x00000000 (0000ms, 0678ms total)
T2008 002:220 JLINK_ReadReg(FPS21)  returns 0x00000000 (0000ms, 0678ms total)
T2008 002:220 JLINK_ReadReg(FPS22)  returns 0x00000000 (0000ms, 0678ms total)
T2008 002:220 JLINK_ReadReg(FPS23)  returns 0x00000000 (0000ms, 0678ms total)
T2008 002:220 JLINK_ReadReg(FPS24)  returns 0x00000000 (0000ms, 0678ms total)
T2008 002:220 JLINK_ReadReg(FPS25)  returns 0x00000000 (0000ms, 0678ms total)
T2008 002:220 JLINK_ReadReg(FPS26)  returns 0x00000000 (0000ms, 0678ms total)
T2008 002:220 JLINK_ReadReg(FPS27)  returns 0x00000000 (0000ms, 0678ms total)
T2008 002:220 JLINK_ReadReg(FPS28)  returns 0x00000000 (0001ms, 0679ms total)
T2008 002:221 JLINK_ReadReg(FPS29)  returns 0x00000000 (0000ms, 0679ms total)
T2008 002:221 JLINK_ReadReg(FPS30)  returns 0x00000000 (0000ms, 0679ms total)
T2008 002:221 JLINK_ReadReg(FPS31)  returns 0x00000000 (0000ms, 0679ms total)
T3F38 002:224 JLINK_ReadMemU32(0xE0001004, 0x0001 Items, ...) -- CPU_ReadMem(4 bytes @ 0xE0001004) - Data: 73 7E 00 00  returns 0x01 (0001ms, 0680ms total)
T3F38 002:229 JLINK_ReadMem (0x08001364, 0x003C Bytes, ...) -- CPU_ReadMem(128 bytes @ 0x08001340) -- Updating DA cache (128 bytes @ 0x08001340) -- Read from DA cache (60 bytes @ 0x08001364) - Data: FF F7 12 F8 FF F7 12 F9 FF F7 DE FE FF F7 20 FF ...  returns 0x00 (0002ms, 0682ms total)
T3F38 007:029 JLINK_ReadMem (0x00000000, 0x004E Bytes, ...) -- CPU_ReadMem(78 bytes @ 0x00000000) - Data: E8 04 00 20 9D 01 00 08 F3 0B 00 08 EB 0B 00 08 ...  returns 0x00 (0003ms, 0686ms total)
T3F38 031:453 JLINK_ReadMem (0x080001EC, 0x003C Bytes, ...) -- CPU_ReadMem(128 bytes @ 0x080001C0) -- Updating DA cache (128 bytes @ 0x080001C0) -- Read from DA cache (60 bytes @ 0x080001EC) - Data: 02 21 34 48 00 F0 EA F9 00 28 60 D0 6A 46 00 21 ...  returns 0x00 (0002ms, 0688ms total)
T2008 035:087 JLINK_SetBPEx(Addr = 0x080001EC, Type = 0xFFFFFFF2)  returns 0x00000002 (0000ms, 0688ms total)
T2008 035:087 JLINK_Go() -- CPU_WriteMem(4 bytes @ 0xE0002000) -- CPU_WriteMem(4 bytes @ 0xE0002008) (0002ms, 0690ms total)
T2008 035:190 JLINK_IsHalted()  returns FALSE (0000ms, 0690ms total)
T2008 035:291 JLINK_IsHalted()  returns FALSE (0000ms, 0690ms total)
T2008 035:392 JLINK_IsHalted()  returns FALSE (0001ms, 0691ms total)
T2008 035:493 JLINK_IsHalted()  returns FALSE (0001ms, 0691ms total)
T2008 035:595 JLINK_ReadMemU32(0xE0001004, 0x0001 Items, ...) -- CPU is running -- CPU_ReadMem(4 bytes @ 0xE0001004) - Data: BC 5F 11 05  returns 0x01 (0000ms, 0690ms total)
T2008 035:598 JLINK_IsHalted()  returns FALSE (0001ms, 0691ms total)
T2008 035:700 JLINK_IsHalted()  returns FALSE (0000ms, 0690ms total)
T2008 035:801 JLINK_IsHalted()  returns FALSE (0000ms, 0690ms total)
T2008 035:902 JLINK_IsHalted()  returns FALSE (0001ms, 0691ms total)
T2008 036:003 JLINK_IsHalted()  returns FALSE (0000ms, 0690ms total)
T2008 036:103 JLINK_IsHalted()  returns FALSE (0001ms, 0691ms total)
T2008 036:205 JLINK_ReadMemU32(0xE0001004, 0x0001 Items, ...) -- CPU is running -- CPU_ReadMem(4 bytes @ 0xE0001004) - Data: 60 FE 2D 0B  returns 0x01 (0001ms, 0691ms total)
T2008 036:206 JLINK_IsHalted()  returns FALSE (0000ms, 0691ms total)
T2008 036:306 JLINK_IsHalted()  returns FALSE (0001ms, 0692ms total)
T2008 036:407 JLINK_IsHalted()  returns FALSE (0001ms, 0692ms total)
T2008 036:508 JLINK_IsHalted()  returns FALSE (0001ms, 0692ms total)
T2008 036:609 JLINK_IsHalted()  returns FALSE (0001ms, 0692ms total)
T2008 036:711 JLINK_IsHalted()  returns FALSE (0000ms, 0691ms total)
T2008 036:815 JLINK_ReadMemU32(0xE0001004, 0x0001 Items, ...) -- CPU is running -- CPU_ReadMem(4 bytes @ 0xE0001004) - Data: 42 A2 4A 11  returns 0x01 (0001ms, 0692ms total)
T2008 036:816 JLINK_IsHalted()  returns FALSE (0000ms, 0692ms total)
T2008 036:917 JLINK_IsHalted()  returns FALSE (0000ms, 0692ms total)
T2008 037:018 JLINK_IsHalted()  returns FALSE (0000ms, 0692ms total)
T2008 037:118 JLINK_IsHalted()  returns FALSE (0001ms, 0693ms total)
T2008 037:219 JLINK_IsHalted()  returns FALSE (0001ms, 0693ms total)
T2008 037:321 JLINK_IsHalted()  returns FALSE (0000ms, 0692ms total)
T2008 037:421 JLINK_ReadMemU32(0xE0001004, 0x0001 Items, ...) -- CPU is running -- CPU_ReadMem(4 bytes @ 0xE0001004) - Data: 1C 9C 5B 17  returns 0x01 (0001ms, 0693ms total)
T2008 037:422 JLINK_IsHalted()  returns FALSE (0000ms, 0693ms total)
T2008 037:523 JLINK_IsHalted()  returns FALSE (0001ms, 0694ms total)
T2008 037:624 JLINK_IsHalted()  returns FALSE (0000ms, 0693ms total)
T2008 037:725 JLINK_IsHalted()  returns FALSE (0000ms, 0693ms total)
T2008 037:826 JLINK_IsHalted()  returns FALSE (0000ms, 0693ms total)
T2008 037:926 JLINK_IsHalted()  returns FALSE (0001ms, 0694ms total)
T2008 038:027 JLINK_ReadMemU32(0xE0001004, 0x0001 Items, ...) -- CPU is running -- CPU_ReadMem(4 bytes @ 0xE0001004) - Data: 20 57 6C 1D  returns 0x01 (0000ms, 0693ms total)
T2008 038:027 JLINK_IsHalted()  returns FALSE (0001ms, 0694ms total)
T2008 038:129 JLINK_IsHalted()  returns FALSE (0001ms, 0694ms total)
T2008 038:230 JLINK_IsHalted()  returns FALSE (0001ms, 0694ms total)
T2008 038:331 JLINK_IsHalted()  returns FALSE (0000ms, 0693ms total)
T2008 038:432 JLINK_IsHalted()  returns FALSE (0001ms, 0694ms total)
T2008 038:533 JLINK_ReadMemU32(0xE0001004, 0x0001 Items, ...) -- CPU is running -- CPU_ReadMem(4 bytes @ 0xE0001004) - Data: 79 98 7E 22  returns 0x01 (0001ms, 0694ms total)
T2008 038:534 JLINK_IsHalted()  returns FALSE (0001ms, 0695ms total)
T2008 038:636 JLINK_IsHalted()  returns FALSE (0000ms, 0694ms total)
T2008 038:736 JLINK_IsHalted()  returns FALSE (0001ms, 0695ms total)
T2008 038:838 JLINK_IsHalted()  returns FALSE (0000ms, 0694ms total)
T2008 038:939 JLINK_IsHalted()  returns FALSE (0001ms, 0695ms total)
T2008 039:040 JLINK_IsHalted()  returns FALSE (0001ms, 0695ms total)
T2008 039:142 JLINK_ReadMemU32(0xE0001004, 0x0001 Items, ...) -- CPU is running -- CPU_ReadMem(4 bytes @ 0xE0001004) - Data: 15 DC 96 28  returns 0x01 (0000ms, 0694ms total)
T2008 039:143 JLINK_IsHalted()  returns FALSE (0000ms, 0694ms total)
T2008 039:244 JLINK_IsHalted()  returns FALSE (0001ms, 0695ms total)
T2008 039:346 JLINK_IsHalted()  returns FALSE (0000ms, 0694ms total)
T2008 039:447 JLINK_IsHalted()  returns TRUE (0004ms, 0698ms total)
T2008 039:451 JLINK_Halt()  returns 0x00 (0000ms, 0694ms total)
T2008 039:451 JLINK_IsHalted()  returns TRUE (0000ms, 0694ms total)
T2008 039:451 JLINK_IsHalted()  returns TRUE (0000ms, 0694ms total)
T2008 039:451 JLINK_IsHalted()  returns TRUE (0000ms, 0694ms total)
T2008 039:451 JLINK_ReadReg(R15 (PC))  returns 0x080001EC (0000ms, 0694ms total)
T2008 039:451 JLINK_ReadReg(XPSR)  returns 0x61000050 (0000ms, 0694ms total)
T2008 039:451 JLINK_ClrBPEx(BPHandle = 0x00000002)  returns 0x00 (0000ms, 0694ms total)
T2008 039:451 JLINK_ReadMemU32(0xE000ED30, 0x0001 Items, ...) -- CPU_ReadMem(4 bytes @ 0xE000ED30) - Data: 03 00 00 00  returns 0x01 (0001ms, 0695ms total)
T2008 039:452 JLINK_ReadMemU32(0xE0001028, 0x0001 Items, ...) -- CPU_ReadMem(4 bytes @ 0xE0001028) - Data: 00 00 00 00  returns 0x01 (0000ms, 0695ms total)
T2008 039:452 JLINK_ReadMemU32(0xE0001038, 0x0001 Items, ...) -- CPU_ReadMem(4 bytes @ 0xE0001038) - Data: 00 02 00 00  returns 0x01 (0001ms, 0696ms total)
T2008 039:453 JLINK_ReadMemU32(0xE0001048, 0x0001 Items, ...) -- CPU_ReadMem(4 bytes @ 0xE0001048) - Data: 00 00 00 00  returns 0x01 (0001ms, 0697ms total)
T2008 039:454 JLINK_ReadMemU32(0xE0001058, 0x0001 Items, ...) -- CPU_ReadMem(4 bytes @ 0xE0001058) - Data: 00 00 00 00  returns 0x01 (0000ms, 0697ms total)
T2008 039:454 JLINK_ReadReg(R0)  returns 0x00000000 (0001ms, 0698ms total)
T2008 039:455 JLINK_ReadReg(R1)  returns 0x00023280 (0000ms, 0698ms total)
T2008 039:455 JLINK_ReadReg(R2)  returns 0xE000E000 (0000ms, 0698ms total)
T2008 039:455 JLINK_ReadReg(R3)  returns 0xE000ED18 (0000ms, 0698ms total)
T2008 039:455 JLINK_ReadReg(R4)  returns 0x080013B8 (0000ms, 0698ms total)
T2008 039:455 JLINK_ReadReg(R5)  returns 0x080013B8 (0000ms, 0698ms total)
T2008 039:455 JLINK_ReadReg(R6)  returns 0x00000000 (0000ms, 0698ms total)
T2008 039:455 JLINK_ReadReg(R7)  returns 0x00000000 (0000ms, 0698ms total)
T2008 039:455 JLINK_ReadReg(R8)  returns 0x00000000 (0000ms, 0698ms total)
T2008 039:455 JLINK_ReadReg(R9)  returns 0x00000000 (0001ms, 0699ms total)
T2008 039:456 JLINK_ReadReg(R10)  returns 0x00000000 (0000ms, 0699ms total)
T2008 039:456 JLINK_ReadReg(R11)  returns 0x00000000 (0000ms, 0699ms total)
T2008 039:456 JLINK_ReadReg(R12)  returns 0x00000000 (0000ms, 0699ms total)
T2008 039:456 JLINK_ReadReg(R13 (SP))  returns 0x20000468 (0000ms, 0699ms total)
T2008 039:456 JLINK_ReadReg(R14)  returns 0xFFFFFFE9 (0000ms, 0699ms total)
T2008 039:456 JLINK_ReadReg(R15 (PC))  returns 0x080001EC (0000ms, 0699ms total)
T2008 039:456 JLINK_ReadReg(XPSR)  returns 0x61000050 (0000ms, 0699ms total)
T2008 039:456 JLINK_ReadReg(MSP)  returns 0x20000468 (0000ms, 0699ms total)
T2008 039:456 JLINK_ReadReg(PSP)  returns 0x00000000 (0001ms, 0700ms total)
T2008 039:457 JLINK_ReadReg(CFBP)  returns 0x00000000 (0000ms, 0700ms total)
T2008 039:457 JLINK_ReadReg(FPSCR)  returns 0x00000000 (0005ms, 0705ms total)
T2008 039:462 JLINK_ReadReg(FPS0)  returns 0x47434F00 (0000ms, 0705ms total)
T2008 039:462 JLINK_ReadReg(FPS1)  returns 0x00000000 (0000ms, 0705ms total)
T2008 039:462 JLINK_ReadReg(FPS2)  returns 0x00000000 (0000ms, 0705ms total)
T2008 039:462 JLINK_ReadReg(FPS3)  returns 0x00000000 (0000ms, 0705ms total)
T2008 039:462 JLINK_ReadReg(FPS4)  returns 0x00000000 (0000ms, 0705ms total)
T2008 039:462 JLINK_ReadReg(FPS5)  returns 0x00000000 (0000ms, 0705ms total)
T2008 039:462 JLINK_ReadReg(FPS6)  returns 0x00000000 (0001ms, 0706ms total)
T2008 039:463 JLINK_ReadReg(FPS7)  returns 0x00000000 (0000ms, 0706ms total)
T2008 039:463 JLINK_ReadReg(FPS8)  returns 0x00000000 (0000ms, 0706ms total)
T2008 039:463 JLINK_ReadReg(FPS9)  returns 0x00000000 (0000ms, 0706ms total)
T2008 039:463 JLINK_ReadReg(FPS10)  returns 0x00000000 (0000ms, 0706ms total)
T2008 039:463 JLINK_ReadReg(FPS11)  returns 0x00000000 (0000ms, 0706ms total)
T2008 039:463 JLINK_ReadReg(FPS12)  returns 0x00000000 (0000ms, 0706ms total)
T2008 039:463 JLINK_ReadReg(FPS13)  returns 0x00000000 (0000ms, 0706ms total)
T2008 039:463 JLINK_ReadReg(FPS14)  returns 0x00000000 (0000ms, 0706ms total)
T2008 039:463 JLINK_ReadReg(FPS15)  returns 0x00000000 (0000ms, 0706ms total)
T2008 039:463 JLINK_ReadReg(FPS16)  returns 0x00000000 (0001ms, 0707ms total)
T2008 039:464 JLINK_ReadReg(FPS17)  returns 0x00000000 (0000ms, 0707ms total)
T2008 039:464 JLINK_ReadReg(FPS18)  returns 0x00000000 (0000ms, 0707ms total)
T2008 039:464 JLINK_ReadReg(FPS19)  returns 0x00000000 (0000ms, 0707ms total)
T2008 039:464 JLINK_ReadReg(FPS20)  returns 0x00000000 (0000ms, 0707ms total)
T2008 039:464 JLINK_ReadReg(FPS21)  returns 0x00000000 (0000ms, 0707ms total)
T2008 039:464 JLINK_ReadReg(FPS22)  returns 0x00000000 (0000ms, 0707ms total)
T2008 039:464 JLINK_ReadReg(FPS23)  returns 0x00000000 (0000ms, 0707ms total)
T2008 039:464 JLINK_ReadReg(FPS24)  returns 0x00000000 (0000ms, 0707ms total)
T2008 039:464 JLINK_ReadReg(FPS25)  returns 0x00000000 (0000ms, 0707ms total)
T2008 039:464 JLINK_ReadReg(FPS26)  returns 0x00000000 (0001ms, 0708ms total)
T2008 039:465 JLINK_ReadReg(FPS27)  returns 0x00000000 (0000ms, 0708ms total)
T2008 039:465 JLINK_ReadReg(FPS28)  returns 0x00000000 (0000ms, 0708ms total)
T2008 039:465 JLINK_ReadReg(FPS29)  returns 0x00000000 (0000ms, 0708ms total)
T2008 039:465 JLINK_ReadReg(FPS30)  returns 0x00000000 (0000ms, 0708ms total)
T2008 039:465 JLINK_ReadReg(FPS31)  returns 0x00000000 (0000ms, 0708ms total)
T3F38 039:465 JLINK_ReadMem (0x2000047C, 0x0004 Bytes, ...) -- CPU_ReadMem(4 bytes @ 0x2000047C) - Data: E9 FF FF FF  returns 0x00 (0001ms, 0709ms total)
T3F38 039:466 JLINK_ReadMem (0x20000498, 0x0004 Bytes, ...) -- CPU_ReadMem(4 bytes @ 0x20000498) - Data: 8C 13 00 08  returns 0x00 (0001ms, 0710ms total)
T3F38 039:467 JLINK_ReadMem (0x2000049C, 0x0004 Bytes, ...) -- CPU_ReadMem(4 bytes @ 0x2000049C) - Data: 00 00 00 61  returns 0x00 (0001ms, 0711ms total)
T3F38 039:468 JLINK_ReadMem (0x20000494, 0x0004 Bytes, ...) -- CPU_ReadMem(4 bytes @ 0x20000494) - Data: B9 10 00 08  returns 0x00 (0000ms, 0711ms total)
T3F38 039:468 JLINK_ReadMem (0xE000ED28, 0x0004 Bytes, ...) -- CPU_ReadMem(4 bytes @ 0xE000ED28) - Data: 00 00 00 00  returns 0x00 (0001ms, 0712ms total)
T3F38 039:469 JLINK_ReadMem (0x200004E8, 0x0004 Bytes, ...) -- CPU_ReadMem(4 bytes @ 0x200004E8) - Data: FF FF FF FF  returns 0x00 (0001ms, 0713ms total)
T2008 041:435 JLINK_Step() -- CPU_ReadMem(64 bytes @ 0x080001C0) -- Updating DA cache (64 bytes @ 0x080001C0) -- Read from DA cache (2 bytes @ 0x080001EC) -- CPU_ReadMem(4 bytes @ 0xE0001004) -- Simulated  returns 0x00 (0003ms, 0716ms total)
T2008 041:438 JLINK_ReadReg(R15 (PC))  returns 0x080001EE (0000ms, 0716ms total)
T2008 041:438 JLINK_ReadReg(XPSR)  returns 0x21000050 (0000ms, 0716ms total)
T2008 041:438 JLINK_SetBPEx(Addr = 0x080001EC, Type = 0xFFFFFFF2)  returns 0x00000003 (0000ms, 0716ms total)
T2008 041:438 JLINK_Go() -- CPU_WriteMem(4 bytes @ 0xE0002000) -- CPU_WriteMem(4 bytes @ 0xE0001004) (0003ms, 0719ms total)
T2008 041:542 JLINK_IsHalted()  returns TRUE (0004ms, 0723ms total)
T2008 041:546 JLINK_Halt()  returns 0x00 (0000ms, 0719ms total)
T2008 041:546 JLINK_IsHalted()  returns TRUE (0000ms, 0719ms total)
T2008 041:546 JLINK_IsHalted()  returns TRUE (0000ms, 0719ms total)
T2008 041:546 JLINK_IsHalted()  returns TRUE (0000ms, 0719ms total)
T2008 041:546 JLINK_ReadReg(R15 (PC))  returns 0x080001EC (0000ms, 0719ms total)
T2008 041:546 JLINK_ReadReg(XPSR)  returns 0x61000050 (0000ms, 0719ms total)
T2008 041:546 JLINK_ClrBPEx(BPHandle = 0x00000003)  returns 0x00 (0000ms, 0719ms total)
T2008 041:546 JLINK_ReadMemU32(0xE000ED30, 0x0001 Items, ...) -- CPU_ReadMem(4 bytes @ 0xE000ED30) - Data: 03 00 00 00  returns 0x01 (0001ms, 0720ms total)
T2008 041:547 JLINK_ReadMemU32(0xE0001028, 0x0001 Items, ...) -- CPU_ReadMem(4 bytes @ 0xE0001028) - Data: 00 00 00 00  returns 0x01 (0001ms, 0721ms total)
T2008 041:548 JLINK_ReadMemU32(0xE0001038, 0x0001 Items, ...) -- CPU_ReadMem(4 bytes @ 0xE0001038) - Data: 00 02 00 00  returns 0x01 (0000ms, 0721ms total)
T2008 041:548 JLINK_ReadMemU32(0xE0001048, 0x0001 Items, ...) -- CPU_ReadMem(4 bytes @ 0xE0001048) - Data: 00 00 00 00  returns 0x01 (0001ms, 0722ms total)
T2008 041:549 JLINK_ReadMemU32(0xE0001058, 0x0001 Items, ...) -- CPU_ReadMem(4 bytes @ 0xE0001058) - Data: 00 00 00 00  returns 0x01 (0001ms, 0723ms total)
T2008 041:550 JLINK_ReadReg(R0)  returns 0x40006800 (0000ms, 0723ms total)
T2008 041:550 JLINK_ReadReg(R1)  returns 0x00000002 (0000ms, 0723ms total)
T2008 041:550 JLINK_ReadReg(R2)  returns 0x20000468 (0000ms, 0723ms total)
T2008 041:550 JLINK_ReadReg(R3)  returns 0x0000003B (0000ms, 0723ms total)
T2008 041:550 JLINK_ReadReg(R4)  returns 0x080013B8 (0000ms, 0723ms total)
T2008 041:550 JLINK_ReadReg(R5)  returns 0x080013B8 (0000ms, 0723ms total)
T2008 041:551 JLINK_ReadReg(R6)  returns 0x00000000 (0000ms, 0724ms total)
T2008 041:551 JLINK_ReadReg(R7)  returns 0x00000000 (0000ms, 0724ms total)
T2008 041:551 JLINK_ReadReg(R8)  returns 0x00000000 (0000ms, 0724ms total)
T2008 041:551 JLINK_ReadReg(R9)  returns 0x00000000 (0000ms, 0724ms total)
T2008 041:551 JLINK_ReadReg(R10)  returns 0x00000000 (0000ms, 0724ms total)
T2008 041:551 JLINK_ReadReg(R11)  returns 0x00000000 (0000ms, 0724ms total)
T2008 041:551 JLINK_ReadReg(R12)  returns 0x00000000 (0000ms, 0724ms total)
T2008 041:551 JLINK_ReadReg(R13 (SP))  returns 0x20000468 (0000ms, 0724ms total)
T2008 041:551 JLINK_ReadReg(R14)  returns 0xFFFFFFE9 (0000ms, 0724ms total)
T2008 041:551 JLINK_ReadReg(R15 (PC))  returns 0x080001EC (0000ms, 0724ms total)
T2008 041:551 JLINK_ReadReg(XPSR)  returns 0x61000050 (0000ms, 0724ms total)
T2008 041:551 JLINK_ReadReg(MSP)  returns 0x20000468 (0000ms, 0724ms total)
T2008 041:551 JLINK_ReadReg(PSP)  returns 0x00000000 (0001ms, 0725ms total)
T2008 041:552 JLINK_ReadReg(CFBP)  returns 0x00000000 (0000ms, 0725ms total)
T2008 041:552 JLINK_ReadReg(FPSCR)  returns 0x00000000 (0005ms, 0730ms total)
T2008 041:557 JLINK_ReadReg(FPS0)  returns 0x47434F00 (0000ms, 0730ms total)
T2008 041:557 JLINK_ReadReg(FPS1)  returns 0x00000000 (0000ms, 0730ms total)
T2008 041:557 JLINK_ReadReg(FPS2)  returns 0x00000000 (0000ms, 0730ms total)
T2008 041:557 JLINK_ReadReg(FPS3)  returns 0x00000000 (0000ms, 0730ms total)
T2008 041:557 JLINK_ReadReg(FPS4)  returns 0x00000000 (0000ms, 0730ms total)
T2008 041:557 JLINK_ReadReg(FPS5)  returns 0x00000000 (0000ms, 0730ms total)
T2008 041:557 JLINK_ReadReg(FPS6)  returns 0x00000000 (0000ms, 0730ms total)
T2008 041:557 JLINK_ReadReg(FPS7)  returns 0x00000000 (0001ms, 0731ms total)
T2008 041:558 JLINK_ReadReg(FPS8)  returns 0x00000000 (0000ms, 0731ms total)
T2008 041:558 JLINK_ReadReg(FPS9)  returns 0x00000000 (0000ms, 0731ms total)
T2008 041:558 JLINK_ReadReg(FPS10)  returns 0x00000000 (0000ms, 0731ms total)
T2008 041:558 JLINK_ReadReg(FPS11)  returns 0x00000000 (0000ms, 0731ms total)
T2008 041:558 JLINK_ReadReg(FPS12)  returns 0x00000000 (0000ms, 0731ms total)
T2008 041:558 JLINK_ReadReg(FPS13)  returns 0x00000000 (0000ms, 0731ms total)
T2008 041:558 JLINK_ReadReg(FPS14)  returns 0x00000000 (0000ms, 0731ms total)
T2008 041:558 JLINK_ReadReg(FPS15)  returns 0x00000000 (0000ms, 0731ms total)
T2008 041:558 JLINK_ReadReg(FPS16)  returns 0x00000000 (0000ms, 0731ms total)
T2008 041:558 JLINK_ReadReg(FPS17)  returns 0x00000000 (0000ms, 0731ms total)
T2008 041:558 JLINK_ReadReg(FPS18)  returns 0x00000000 (0000ms, 0731ms total)
T2008 041:558 JLINK_ReadReg(FPS19)  returns 0x00000000 (0000ms, 0731ms total)
T2008 041:558 JLINK_ReadReg(FPS20)  returns 0x00000000 (0001ms, 0732ms total)
T2008 041:559 JLINK_ReadReg(FPS21)  returns 0x00000000 (0000ms, 0732ms total)
T2008 041:559 JLINK_ReadReg(FPS22)  returns 0x00000000 (0000ms, 0732ms total)
T2008 041:559 JLINK_ReadReg(FPS23)  returns 0x00000000 (0000ms, 0732ms total)
T2008 041:559 JLINK_ReadReg(FPS24)  returns 0x00000000 (0000ms, 0732ms total)
T2008 041:559 JLINK_ReadReg(FPS25)  returns 0x00000000 (0000ms, 0732ms total)
T2008 041:559 JLINK_ReadReg(FPS26)  returns 0x00000000 (0000ms, 0732ms total)
T2008 041:559 JLINK_ReadReg(FPS27)  returns 0x00000000 (0000ms, 0732ms total)
T2008 041:559 JLINK_ReadReg(FPS28)  returns 0x00000000 (0000ms, 0732ms total)
T2008 041:559 JLINK_ReadReg(FPS29)  returns 0x00000000 (0000ms, 0732ms total)
T2008 041:559 JLINK_ReadReg(FPS30)  returns 0x00000000 (0000ms, 0732ms total)
T2008 041:559 JLINK_ReadReg(FPS31)  returns 0x00000000 (0000ms, 0732ms total)
T3F38 041:559 JLINK_ReadMem (0x2000047C, 0x0004 Bytes, ...) -- CPU_ReadMem(4 bytes @ 0x2000047C) - Data: E9 FF FF FF  returns 0x00 (0001ms, 0733ms total)
T3F38 041:560 JLINK_ReadMem (0x20000498, 0x0004 Bytes, ...) -- CPU_ReadMem(4 bytes @ 0x20000498) - Data: 8C 13 00 08  returns 0x00 (0000ms, 0733ms total)
T3F38 041:561 JLINK_ReadMem (0x2000049C, 0x0004 Bytes, ...) -- CPU_ReadMem(4 bytes @ 0x2000049C) - Data: 00 00 00 61  returns 0x00 (0000ms, 0733ms total)
T3F38 041:561 JLINK_ReadMem (0x20000494, 0x0004 Bytes, ...) -- CPU_ReadMem(4 bytes @ 0x20000494) - Data: B9 10 00 08  returns 0x00 (0001ms, 0734ms total)
T3F38 041:562 JLINK_ReadMem (0xE000ED28, 0x0004 Bytes, ...) -- CPU_ReadMem(4 bytes @ 0xE000ED28) - Data: 00 00 00 00  returns 0x00 (0001ms, 0735ms total)
T3F38 041:563 JLINK_ReadMem (0x200004E8, 0x0004 Bytes, ...) -- CPU_ReadMem(4 bytes @ 0x200004E8) - Data: FF FF FF FF  returns 0x00 (0000ms, 0735ms total)
T2008 042:788 JLINK_Step() -- CPU_ReadMem(64 bytes @ 0x080001C0) -- Updating DA cache (64 bytes @ 0x080001C0) -- Read from DA cache (2 bytes @ 0x080001EC) -- CPU_ReadMem(4 bytes @ 0xE0001004) -- Simulated  returns 0x00 (0002ms, 0737ms total)
T2008 042:790 JLINK_ReadReg(R15 (PC))  returns 0x080001EE (0000ms, 0737ms total)
T2008 042:790 JLINK_ReadReg(XPSR)  returns 0x21000050 (0000ms, 0737ms total)
T2008 042:791 JLINK_SetBPEx(Addr = 0x080001EC, Type = 0xFFFFFFF2)  returns 0x00000004 (0000ms, 0737ms total)
T2008 042:791 JLINK_Go() -- CPU_WriteMem(4 bytes @ 0xE0002000) -- CPU_WriteMem(4 bytes @ 0xE0001004) (0002ms, 0739ms total)
T2008 042:893 JLINK_IsHalted()  returns TRUE (0003ms, 0742ms total)
T2008 042:896 JLINK_Halt()  returns 0x00 (0000ms, 0739ms total)
T2008 042:896 JLINK_IsHalted()  returns TRUE (0000ms, 0739ms total)
T2008 042:896 JLINK_IsHalted()  returns TRUE (0000ms, 0739ms total)
T2008 042:897 JLINK_IsHalted()  returns TRUE (0000ms, 0739ms total)
T2008 042:897 JLINK_ReadReg(R15 (PC))  returns 0x080001EC (0000ms, 0739ms total)
T2008 042:897 JLINK_ReadReg(XPSR)  returns 0x61000050 (0000ms, 0739ms total)
T2008 042:897 JLINK_ClrBPEx(BPHandle = 0x00000004)  returns 0x00 (0000ms, 0739ms total)
T2008 042:897 JLINK_ReadMemU32(0xE000ED30, 0x0001 Items, ...) -- CPU_ReadMem(4 bytes @ 0xE000ED30) - Data: 03 00 00 00  returns 0x01 (0000ms, 0739ms total)
T2008 042:897 JLINK_ReadMemU32(0xE0001028, 0x0001 Items, ...) -- CPU_ReadMem(4 bytes @ 0xE0001028) - Data: 00 00 00 00  returns 0x01 (0001ms, 0740ms total)
T2008 042:898 JLINK_ReadMemU32(0xE0001038, 0x0001 Items, ...) -- CPU_ReadMem(4 bytes @ 0xE0001038) - Data: 00 02 00 00  returns 0x01 (0000ms, 0740ms total)
T2008 042:898 JLINK_ReadMemU32(0xE0001048, 0x0001 Items, ...) -- CPU_ReadMem(4 bytes @ 0xE0001048) - Data: 00 00 00 00  returns 0x01 (0001ms, 0741ms total)
T2008 042:899 JLINK_ReadMemU32(0xE0001058, 0x0001 Items, ...) -- CPU_ReadMem(4 bytes @ 0xE0001058) - Data: 00 00 00 00  returns 0x01 (0000ms, 0741ms total)
T2008 042:899 JLINK_ReadReg(R0)  returns 0x40006800 (0000ms, 0741ms total)
T2008 042:899 JLINK_ReadReg(R1)  returns 0x00000002 (0000ms, 0741ms total)
T2008 042:899 JLINK_ReadReg(R2)  returns 0x20000468 (0000ms, 0741ms total)
T2008 042:899 JLINK_ReadReg(R3)  returns 0x0000003B (0000ms, 0741ms total)
T2008 042:899 JLINK_ReadReg(R4)  returns 0x080013B8 (0000ms, 0741ms total)
T2008 042:899 JLINK_ReadReg(R5)  returns 0x080013B8 (0000ms, 0741ms total)
T2008 042:899 JLINK_ReadReg(R6)  returns 0x00000000 (0000ms, 0741ms total)
T2008 042:900 JLINK_ReadReg(R7)  returns 0x00000000 (0000ms, 0742ms total)
T2008 042:900 JLINK_ReadReg(R8)  returns 0x00000000 (0000ms, 0742ms total)
T2008 042:900 JLINK_ReadReg(R9)  returns 0x00000000 (0000ms, 0742ms total)
T2008 042:900 JLINK_ReadReg(R10)  returns 0x00000000 (0000ms, 0742ms total)
T2008 042:900 JLINK_ReadReg(R11)  returns 0x00000000 (0000ms, 0742ms total)
T2008 042:900 JLINK_ReadReg(R12)  returns 0x00000000 (0000ms, 0742ms total)
T2008 042:900 JLINK_ReadReg(R13 (SP))  returns 0x20000468 (0000ms, 0742ms total)
T2008 042:900 JLINK_ReadReg(R14)  returns 0xFFFFFFE9 (0000ms, 0742ms total)
T2008 042:900 JLINK_ReadReg(R15 (PC))  returns 0x080001EC (0000ms, 0742ms total)
T2008 042:900 JLINK_ReadReg(XPSR)  returns 0x61000050 (0000ms, 0742ms total)
T2008 042:900 JLINK_ReadReg(MSP)  returns 0x20000468 (0000ms, 0742ms total)
T2008 042:900 JLINK_ReadReg(PSP)  returns 0x00000000 (0000ms, 0742ms total)
T2008 042:900 JLINK_ReadReg(CFBP)  returns 0x00000000 (0000ms, 0742ms total)
T2008 042:900 JLINK_ReadReg(FPSCR)  returns 0x00000000 (0005ms, 0747ms total)
T2008 042:905 JLINK_ReadReg(FPS0)  returns 0x47434F00 (0000ms, 0747ms total)
T2008 042:905 JLINK_ReadReg(FPS1)  returns 0x00000000 (0000ms, 0747ms total)
T2008 042:905 JLINK_ReadReg(FPS2)  returns 0x00000000 (0000ms, 0747ms total)
T2008 042:905 JLINK_ReadReg(FPS3)  returns 0x00000000 (0000ms, 0747ms total)
T2008 042:905 JLINK_ReadReg(FPS4)  returns 0x00000000 (0000ms, 0747ms total)
T2008 042:905 JLINK_ReadReg(FPS5)  returns 0x00000000 (0000ms, 0747ms total)
T2008 042:905 JLINK_ReadReg(FPS6)  returns 0x00000000 (0000ms, 0747ms total)
T2008 042:905 JLINK_ReadReg(FPS7)  returns 0x00000000 (0000ms, 0747ms total)
T2008 042:905 JLINK_ReadReg(FPS8)  returns 0x00000000 (0000ms, 0747ms total)
T2008 042:905 JLINK_ReadReg(FPS9)  returns 0x00000000 (0000ms, 0747ms total)
T2008 042:905 JLINK_ReadReg(FPS10)  returns 0x00000000 (0000ms, 0747ms total)
T2008 042:906 JLINK_ReadReg(FPS11)  returns 0x00000000 (0000ms, 0748ms total)
T2008 042:906 JLINK_ReadReg(FPS12)  returns 0x00000000 (0000ms, 0748ms total)
T2008 042:906 JLINK_ReadReg(FPS13)  returns 0x00000000 (0000ms, 0748ms total)
T2008 042:906 JLINK_ReadReg(FPS14)  returns 0x00000000 (0000ms, 0748ms total)
T2008 042:906 JLINK_ReadReg(FPS15)  returns 0x00000000 (0000ms, 0748ms total)
T2008 042:906 JLINK_ReadReg(FPS16)  returns 0x00000000 (0000ms, 0748ms total)
T2008 042:906 JLINK_ReadReg(FPS17)  returns 0x00000000 (0000ms, 0748ms total)
T2008 042:906 JLINK_ReadReg(FPS18)  returns 0x00000000 (0000ms, 0748ms total)
T2008 042:906 JLINK_ReadReg(FPS19)  returns 0x00000000 (0000ms, 0748ms total)
T2008 042:906 JLINK_ReadReg(FPS20)  returns 0x00000000 (0000ms, 0748ms total)
T2008 042:906 JLINK_ReadReg(FPS21)  returns 0x00000000 (0000ms, 0748ms total)
T2008 042:906 JLINK_ReadReg(FPS22)  returns 0x00000000 (0000ms, 0748ms total)
T2008 042:906 JLINK_ReadReg(FPS23)  returns 0x00000000 (0000ms, 0748ms total)
T2008 042:906 JLINK_ReadReg(FPS24)  returns 0x00000000 (0000ms, 0748ms total)
T2008 042:906 JLINK_ReadReg(FPS25)  returns 0x00000000 (0000ms, 0748ms total)
T2008 042:906 JLINK_ReadReg(FPS26)  returns 0x00000000 (0000ms, 0748ms total)
T2008 042:906 JLINK_ReadReg(FPS27)  returns 0x00000000 (0000ms, 0748ms total)
T2008 042:906 JLINK_ReadReg(FPS28)  returns 0x00000000 (0000ms, 0748ms total)
T2008 042:906 JLINK_ReadReg(FPS29)  returns 0x00000000 (0000ms, 0748ms total)
T2008 042:906 JLINK_ReadReg(FPS30)  returns 0x00000000 (0001ms, 0749ms total)
T2008 042:907 JLINK_ReadReg(FPS31)  returns 0x00000000 (0000ms, 0749ms total)
T3F38 042:907 JLINK_ReadMem (0x2000047C, 0x0004 Bytes, ...) -- CPU_ReadMem(4 bytes @ 0x2000047C) - Data: E9 FF FF FF  returns 0x00 (0000ms, 0749ms total)
T3F38 042:907 JLINK_ReadMem (0x20000498, 0x0004 Bytes, ...) -- CPU_ReadMem(4 bytes @ 0x20000498) - Data: 8C 13 00 08  returns 0x00 (0001ms, 0750ms total)
T3F38 042:908 JLINK_ReadMem (0x2000049C, 0x0004 Bytes, ...) -- CPU_ReadMem(4 bytes @ 0x2000049C) - Data: 00 00 00 61  returns 0x00 (0000ms, 0750ms total)
T3F38 042:908 JLINK_ReadMem (0x20000494, 0x0004 Bytes, ...) -- CPU_ReadMem(4 bytes @ 0x20000494) - Data: B9 10 00 08  returns 0x00 (0001ms, 0751ms total)
T3F38 042:909 JLINK_ReadMem (0xE000ED28, 0x0004 Bytes, ...) -- CPU_ReadMem(4 bytes @ 0xE000ED28) - Data: 00 00 00 00  returns 0x00 (0000ms, 0751ms total)
T3F38 042:909 JLINK_ReadMem (0x200004E8, 0x0004 Bytes, ...) -- CPU_ReadMem(4 bytes @ 0x200004E8) - Data: FF FF FF FF  returns 0x00 (0001ms, 0752ms total)
T2008 044:529 JLINK_Step() -- CPU_ReadMem(64 bytes @ 0x080001C0) -- Updating DA cache (64 bytes @ 0x080001C0) -- Read from DA cache (2 bytes @ 0x080001EC) -- CPU_ReadMem(4 bytes @ 0xE0001004) -- Simulated  returns 0x00 (0002ms, 0754ms total)
T2008 044:531 JLINK_ReadReg(R15 (PC))  returns 0x080001EE (0000ms, 0754ms total)
T2008 044:531 JLINK_ReadReg(XPSR)  returns 0x21000050 (0000ms, 0754ms total)
T2008 044:531 JLINK_SetBPEx(Addr = 0x080001EC, Type = 0xFFFFFFF2)  returns 0x00000005 (0000ms, 0754ms total)
T2008 044:531 JLINK_Go() -- CPU_WriteMem(4 bytes @ 0xE0002000) -- CPU_WriteMem(4 bytes @ 0xE0001004) (0003ms, 0757ms total)
T2008 044:634 JLINK_IsHalted()  returns TRUE (0003ms, 0760ms total)
T2008 044:637 JLINK_Halt()  returns 0x00 (0000ms, 0757ms total)
T2008 044:637 JLINK_IsHalted()  returns TRUE (0000ms, 0757ms total)
T2008 044:637 JLINK_IsHalted()  returns TRUE (0000ms, 0757ms total)
T2008 044:637 JLINK_IsHalted()  returns TRUE (0001ms, 0758ms total)
T2008 044:638 JLINK_ReadReg(R15 (PC))  returns 0x080001EC (0000ms, 0757ms total)
T2008 044:638 JLINK_ReadReg(XPSR)  returns 0x61000050 (0000ms, 0757ms total)
T2008 044:638 JLINK_ClrBPEx(BPHandle = 0x00000005)  returns 0x00 (0000ms, 0757ms total)
T2008 044:638 JLINK_ReadMemU32(0xE000ED30, 0x0001 Items, ...) -- CPU_ReadMem(4 bytes @ 0xE000ED30) - Data: 03 00 00 00  returns 0x01 (0000ms, 0757ms total)
T2008 044:638 JLINK_ReadMemU32(0xE0001028, 0x0001 Items, ...) -- CPU_ReadMem(4 bytes @ 0xE0001028) - Data: 00 00 00 00  returns 0x01 (0001ms, 0758ms total)
T2008 044:639 JLINK_ReadMemU32(0xE0001038, 0x0001 Items, ...) -- CPU_ReadMem(4 bytes @ 0xE0001038) - Data: 00 02 00 00  returns 0x01 (0000ms, 0758ms total)
T2008 044:639 JLINK_ReadMemU32(0xE0001048, 0x0001 Items, ...) -- CPU_ReadMem(4 bytes @ 0xE0001048) - Data: 00 00 00 00  returns 0x01 (0001ms, 0759ms total)
T2008 044:640 JLINK_ReadMemU32(0xE0001058, 0x0001 Items, ...) -- CPU_ReadMem(4 bytes @ 0xE0001058) - Data: 00 00 00 00  returns 0x01 (0000ms, 0759ms total)
T2008 044:640 JLINK_ReadReg(R0)  returns 0x40006800 (0000ms, 0759ms total)
T2008 044:640 JLINK_ReadReg(R1)  returns 0x00000002 (0000ms, 0759ms total)
T2008 044:640 JLINK_ReadReg(R2)  returns 0x20000468 (0000ms, 0759ms total)
T2008 044:640 JLINK_ReadReg(R3)  returns 0x0000003B (0001ms, 0760ms total)
T2008 044:641 JLINK_ReadReg(R4)  returns 0x080013B8 (0000ms, 0760ms total)
T2008 044:641 JLINK_ReadReg(R5)  returns 0x080013B8 (0000ms, 0760ms total)
T2008 044:641 JLINK_ReadReg(R6)  returns 0x00000000 (0000ms, 0760ms total)
T2008 044:641 JLINK_ReadReg(R7)  returns 0x00000000 (0000ms, 0760ms total)
T2008 044:641 JLINK_ReadReg(R8)  returns 0x00000000 (0000ms, 0760ms total)
T2008 044:641 JLINK_ReadReg(R9)  returns 0x00000000 (0000ms, 0760ms total)
T2008 044:641 JLINK_ReadReg(R10)  returns 0x00000000 (0000ms, 0760ms total)
T2008 044:641 JLINK_ReadReg(R11)  returns 0x00000000 (0000ms, 0760ms total)
T2008 044:641 JLINK_ReadReg(R12)  returns 0x00000000 (0000ms, 0760ms total)
T2008 044:641 JLINK_ReadReg(R13 (SP))  returns 0x20000468 (0000ms, 0760ms total)
T2008 044:641 JLINK_ReadReg(R14)  returns 0xFFFFFFE9 (0000ms, 0760ms total)
T2008 044:641 JLINK_ReadReg(R15 (PC))  returns 0x080001EC (0000ms, 0760ms total)
T2008 044:641 JLINK_ReadReg(XPSR)  returns 0x61000050 (0000ms, 0760ms total)
T2008 044:641 JLINK_ReadReg(MSP)  returns 0x20000468 (0000ms, 0760ms total)
T2008 044:641 JLINK_ReadReg(PSP)  returns 0x00000000 (0000ms, 0760ms total)
T2008 044:641 JLINK_ReadReg(CFBP)  returns 0x00000000 (0000ms, 0760ms total)
T2008 044:641 JLINK_ReadReg(FPSCR)  returns 0x00000000 (0005ms, 0765ms total)
T2008 044:646 JLINK_ReadReg(FPS0)  returns 0x47434F00 (0000ms, 0765ms total)
T2008 044:646 JLINK_ReadReg(FPS1)  returns 0x00000000 (0000ms, 0765ms total)
T2008 044:646 JLINK_ReadReg(FPS2)  returns 0x00000000 (0000ms, 0765ms total)
T2008 044:646 JLINK_ReadReg(FPS3)  returns 0x00000000 (0000ms, 0765ms total)
T2008 044:646 JLINK_ReadReg(FPS4)  returns 0x00000000 (0000ms, 0765ms total)
T2008 044:646 JLINK_ReadReg(FPS5)  returns 0x00000000 (0000ms, 0765ms total)
T2008 044:646 JLINK_ReadReg(FPS6)  returns 0x00000000 (0000ms, 0765ms total)
T2008 044:646 JLINK_ReadReg(FPS7)  returns 0x00000000 (0000ms, 0765ms total)
T2008 044:646 JLINK_ReadReg(FPS8)  returns 0x00000000 (0001ms, 0766ms total)
T2008 044:647 JLINK_ReadReg(FPS9)  returns 0x00000000 (0000ms, 0766ms total)
T2008 044:647 JLINK_ReadReg(FPS10)  returns 0x00000000 (0000ms, 0766ms total)
T2008 044:647 JLINK_ReadReg(FPS11)  returns 0x00000000 (0000ms, 0766ms total)
T2008 044:647 JLINK_ReadReg(FPS12)  returns 0x00000000 (0000ms, 0766ms total)
T2008 044:647 JLINK_ReadReg(FPS13)  returns 0x00000000 (0000ms, 0766ms total)
T2008 044:647 JLINK_ReadReg(FPS14)  returns 0x00000000 (0000ms, 0766ms total)
T2008 044:647 JLINK_ReadReg(FPS15)  returns 0x00000000 (0000ms, 0766ms total)
T2008 044:647 JLINK_ReadReg(FPS16)  returns 0x00000000 (0000ms, 0766ms total)
T2008 044:647 JLINK_ReadReg(FPS17)  returns 0x00000000 (0000ms, 0766ms total)
T2008 044:647 JLINK_ReadReg(FPS18)  returns 0x00000000 (0000ms, 0766ms total)
T2008 044:647 JLINK_ReadReg(FPS19)  returns 0x00000000 (0000ms, 0766ms total)
T2008 044:647 JLINK_ReadReg(FPS20)  returns 0x00000000 (0000ms, 0766ms total)
T2008 044:647 JLINK_ReadReg(FPS21)  returns 0x00000000 (0000ms, 0766ms total)
T2008 044:647 JLINK_ReadReg(FPS22)  returns 0x00000000 (0000ms, 0766ms total)
T2008 044:647 JLINK_ReadReg(FPS23)  returns 0x00000000 (0000ms, 0766ms total)
T2008 044:647 JLINK_ReadReg(FPS24)  returns 0x00000000 (0000ms, 0766ms total)
T2008 044:647 JLINK_ReadReg(FPS25)  returns 0x00000000 (0000ms, 0766ms total)
T2008 044:647 JLINK_ReadReg(FPS26)  returns 0x00000000 (0000ms, 0766ms total)
T2008 044:647 JLINK_ReadReg(FPS27)  returns 0x00000000 (0000ms, 0766ms total)
T2008 044:647 JLINK_ReadReg(FPS28)  returns 0x00000000 (0000ms, 0766ms total)
T2008 044:647 JLINK_ReadReg(FPS29)  returns 0x00000000 (0001ms, 0767ms total)
T2008 044:648 JLINK_ReadReg(FPS30)  returns 0x00000000 (0000ms, 0767ms total)
T2008 044:648 JLINK_ReadReg(FPS31)  returns 0x00000000 (0000ms, 0767ms total)
T3F38 044:648 JLINK_ReadMem (0x2000047C, 0x0004 Bytes, ...) -- CPU_ReadMem(4 bytes @ 0x2000047C) - Data: E9 FF FF FF  returns 0x00 (0000ms, 0767ms total)
T3F38 044:648 JLINK_ReadMem (0x20000498, 0x0004 Bytes, ...) -- CPU_ReadMem(4 bytes @ 0x20000498) - Data: 8C 13 00 08  returns 0x00 (0001ms, 0768ms total)
T3F38 044:649 JLINK_ReadMem (0x2000049C, 0x0004 Bytes, ...) -- CPU_ReadMem(4 bytes @ 0x2000049C) - Data: 00 00 00 61  returns 0x00 (0000ms, 0768ms total)
T3F38 044:649 JLINK_ReadMem (0x20000494, 0x0004 Bytes, ...) -- CPU_ReadMem(4 bytes @ 0x20000494) - Data: B9 10 00 08  returns 0x00 (0001ms, 0769ms total)
T3F38 044:650 JLINK_ReadMem (0xE000ED28, 0x0004 Bytes, ...) -- CPU_ReadMem(4 bytes @ 0xE000ED28) - Data: 00 00 00 00  returns 0x00 (0000ms, 0769ms total)
